!Created with skrf (http://scikit-rf.org).
# GHz S RI R 50.0 
!freq
! ReS14 ImS14
! ReS18 ImS18
! ReS112 ImS112
! ReS116 ImS116
!
! ReS24 ImS24
! ReS28 ImS28
! ReS212 ImS212
! ReS216 ImS216
!
! ReS34 ImS34
! ReS38 ImS38
! ReS312 ImS312
! ReS316 ImS316
!
! ReS44 ImS44
! ReS48 ImS48
! ReS412 ImS412
! ReS416 ImS416
!
! ReS54 ImS54
! ReS58 ImS58
! ReS512 ImS512
! ReS516 ImS516
!
! ReS64 ImS64
! ReS68 ImS68
! ReS612 ImS612
! ReS616 ImS616
!
! ReS74 ImS74
! ReS78 ImS78
! ReS712 ImS712
! ReS716 ImS716
!
! ReS84 ImS84
! ReS88 ImS88
! ReS812 ImS812
! ReS816 ImS816
!
! ReS94 ImS94
! ReS98 ImS98
! ReS912 ImS912
! ReS916 ImS916
!
! ReS104 ImS104
! ReS108 ImS108
! ReS1012 ImS1012
! ReS1016 ImS1016
!
! ReS114 ImS114
! ReS118 ImS118
! ReS1112 ImS1112
! ReS1116 ImS1116
!
! ReS124 ImS124
! ReS128 ImS128
! ReS1212 ImS1212
! ReS1216 ImS1216
!
! ReS134 ImS134
! ReS138 ImS138
! ReS1312 ImS1312
! ReS1316 ImS1316
!
! ReS144 ImS144
! ReS148 ImS148
! ReS1412 ImS1412
! ReS1416 ImS1416
!
! ReS154 ImS154
! ReS158 ImS158
! ReS1512 ImS1512
! ReS1516 ImS1516
!
! ReS164 ImS164
! ReS168 ImS168
! ReS1612 ImS1612
! ReS1616 ImS1616
!
! ReS174 ImS174
! ReS178 ImS178
! ReS1712 ImS1712
! ReS1716 ImS1716
!
! ReS184 ImS184
! ReS188 ImS188
! ReS1812 ImS1812
! ReS1816 ImS1816
!
! ReS194 ImS194
! ReS198 ImS198
! ReS1912 ImS1912
! ReS1916 ImS1916
!
0.0 11.0 11.0 12.0 12.0 13.0 13.0 14.0 14.0
 15.0 15.0 16.0 16.0 17.0 17.0 18.0 18.0
 19.0 19.0 110.0 110.0 111.0 111.0 112.0 112.0
 113.0 113.0 114.0 114.0 115.0 115.0 116.0 116.0
 117.0 117.0 118.0 118.0 119.0 119.0
 21.0 21.0 22.0 22.0 23.0 23.0 24.0 24.0
 25.0 25.0 26.0 26.0 27.0 27.0 28.0 28.0
 29.0 29.0 210.0 210.0 211.0 211.0 212.0 212.0
 213.0 213.0 214.0 214.0 215.0 215.0 216.0 216.0
 217.0 217.0 218.0 218.0 219.0 219.0
 31.0 31.0 32.0 32.0 33.0 33.0 34.0 34.0
 35.0 35.0 36.0 36.0 37.0 37.0 38.0 38.0
 39.0 39.0 310.0 310.0 311.0 311.0 312.0 312.0
 313.0 313.0 314.0 314.0 315.0 315.0 316.0 316.0
 317.0 317.0 318.0 318.0 319.0 319.0
 41.0 41.0 42.0 42.0 43.0 43.0 44.0 44.0
 45.0 45.0 46.0 46.0 47.0 47.0 48.0 48.0
 49.0 49.0 410.0 410.0 411.0 411.0 412.0 412.0
 413.0 413.0 414.0 414.0 415.0 415.0 416.0 416.0
 417.0 417.0 418.0 418.0 419.0 419.0
 51.0 51.0 52.0 52.0 53.0 53.0 54.0 54.0
 55.0 55.0 56.0 56.0 57.0 57.0 58.0 58.0
 59.0 59.0 510.0 510.0 511.0 511.0 512.0 512.0
 513.0 513.0 514.0 514.0 515.0 515.0 516.0 516.0
 517.0 517.0 518.0 518.0 519.0 519.0
 61.0 61.0 62.0 62.0 63.0 63.0 64.0 64.0
 65.0 65.0 66.0 66.0 67.0 67.0 68.0 68.0
 69.0 69.0 610.0 610.0 611.0 611.0 612.0 612.0
 613.0 613.0 614.0 614.0 615.0 615.0 616.0 616.0
 617.0 617.0 618.0 618.0 619.0 619.0
 71.0 71.0 72.0 72.0 73.0 73.0 74.0 74.0
 75.0 75.0 76.0 76.0 77.0 77.0 78.0 78.0
 79.0 79.0 710.0 710.0 711.0 711.0 712.0 712.0
 713.0 713.0 714.0 714.0 715.0 715.0 716.0 716.0
 717.0 717.0 718.0 718.0 719.0 719.0
 81.0 81.0 82.0 82.0 83.0 83.0 84.0 84.0
 85.0 85.0 86.0 86.0 87.0 87.0 88.0 88.0
 89.0 89.0 810.0 810.0 811.0 811.0 812.0 812.0
 813.0 813.0 814.0 814.0 815.0 815.0 816.0 816.0
 817.0 817.0 818.0 818.0 819.0 819.0
 91.0 91.0 92.0 92.0 93.0 93.0 94.0 94.0
 95.0 95.0 96.0 96.0 97.0 97.0 98.0 98.0
 99.0 99.0 910.0 910.0 911.0 911.0 912.0 912.0
 913.0 913.0 914.0 914.0 915.0 915.0 916.0 916.0
 917.0 917.0 918.0 918.0 919.0 919.0
 101.0 101.0 102.0 102.0 103.0 103.0 104.0 104.0
 105.0 105.0 106.0 106.0 107.0 107.0 108.0 108.0
 109.0 109.0 1010.0 1010.0 1011.0 1011.0 1012.0 1012.0
 1013.0 1013.0 1014.0 1014.0 1015.0 1015.0 1016.0 1016.0
 1017.0 1017.0 1018.0 1018.0 1019.0 1019.0
 111.0 111.0 112.0 112.0 113.0 113.0 114.0 114.0
 115.0 115.0 116.0 116.0 117.0 117.0 118.0 118.0
 119.0 119.0 1110.0 1110.0 1111.0 1111.0 1112.0 1112.0
 1113.0 1113.0 1114.0 1114.0 1115.0 1115.0 1116.0 1116.0
 1117.0 1117.0 1118.0 1118.0 1119.0 1119.0
 121.0 121.0 122.0 122.0 123.0 123.0 124.0 124.0
 125.0 125.0 126.0 126.0 127.0 127.0 128.0 128.0
 129.0 129.0 1210.0 1210.0 1211.0 1211.0 1212.0 1212.0
 1213.0 1213.0 1214.0 1214.0 1215.0 1215.0 1216.0 1216.0
 1217.0 1217.0 1218.0 1218.0 1219.0 1219.0
 131.0 131.0 132.0 132.0 133.0 133.0 134.0 134.0
 135.0 135.0 136.0 136.0 137.0 137.0 138.0 138.0
 139.0 139.0 1310.0 1310.0 1311.0 1311.0 1312.0 1312.0
 1313.0 1313.0 1314.0 1314.0 1315.0 1315.0 1316.0 1316.0
 1317.0 1317.0 1318.0 1318.0 1319.0 1319.0
 141.0 141.0 142.0 142.0 143.0 143.0 144.0 144.0
 145.0 145.0 146.0 146.0 147.0 147.0 148.0 148.0
 149.0 149.0 1410.0 1410.0 1411.0 1411.0 1412.0 1412.0
 1413.0 1413.0 1414.0 1414.0 1415.0 1415.0 1416.0 1416.0
 1417.0 1417.0 1418.0 1418.0 1419.0 1419.0
 151.0 151.0 152.0 152.0 153.0 153.0 154.0 154.0
 155.0 155.0 156.0 156.0 157.0 157.0 158.0 158.0
 159.0 159.0 1510.0 1510.0 1511.0 1511.0 1512.0 1512.0
 1513.0 1513.0 1514.0 1514.0 1515.0 1515.0 1516.0 1516.0
 1517.0 1517.0 1518.0 1518.0 1519.0 1519.0
 161.0 161.0 162.0 162.0 163.0 163.0 164.0 164.0
 165.0 165.0 166.0 166.0 167.0 167.0 168.0 168.0
 169.0 169.0 1610.0 1610.0 1611.0 1611.0 1612.0 1612.0
 1613.0 1613.0 1614.0 1614.0 1615.0 1615.0 1616.0 1616.0
 1617.0 1617.0 1618.0 1618.0 1619.0 1619.0
 171.0 171.0 172.0 172.0 173.0 173.0 174.0 174.0
 175.0 175.0 176.0 176.0 177.0 177.0 178.0 178.0
 179.0 179.0 1710.0 1710.0 1711.0 1711.0 1712.0 1712.0
 1713.0 1713.0 1714.0 1714.0 1715.0 1715.0 1716.0 1716.0
 1717.0 1717.0 1718.0 1718.0 1719.0 1719.0
 181.0 181.0 182.0 182.0 183.0 183.0 184.0 184.0
 185.0 185.0 186.0 186.0 187.0 187.0 188.0 188.0
 189.0 189.0 1810.0 1810.0 1811.0 1811.0 1812.0 1812.0
 1813.0 1813.0 1814.0 1814.0 1815.0 1815.0 1816.0 1816.0
 1817.0 1817.0 1818.0 1818.0 1819.0 1819.0
 191.0 191.0 192.0 192.0 193.0 193.0 194.0 194.0
 195.0 195.0 196.0 196.0 197.0 197.0 198.0 198.0
 199.0 199.0 1910.0 1910.0 1911.0 1911.0 1912.0 1912.0
 1913.0 1913.0 1914.0 1914.0 1915.0 1915.0 1916.0 1916.0
 1917.0 1917.0 1918.0 1918.0 1919.0 1919.0
1000.0 11.0 11.0 12.0 12.0 13.0 13.0 14.0 14.0
 15.0 15.0 16.0 16.0 17.0 17.0 18.0 18.0
 19.0 19.0 110.0 110.0 111.0 111.0 112.0 112.0
 113.0 113.0 114.0 114.0 115.0 115.0 116.0 116.0
 117.0 117.0 118.0 118.0 119.0 119.0
 21.0 21.0 22.0 22.0 23.0 23.0 24.0 24.0
 25.0 25.0 26.0 26.0 27.0 27.0 28.0 28.0
 29.0 29.0 210.0 210.0 211.0 211.0 212.0 212.0
 213.0 213.0 214.0 214.0 215.0 215.0 216.0 216.0
 217.0 217.0 218.0 218.0 219.0 219.0
 31.0 31.0 32.0 32.0 33.0 33.0 34.0 34.0
 35.0 35.0 36.0 36.0 37.0 37.0 38.0 38.0
 39.0 39.0 310.0 310.0 311.0 311.0 312.0 312.0
 313.0 313.0 314.0 314.0 315.0 315.0 316.0 316.0
 317.0 317.0 318.0 318.0 319.0 319.0
 41.0 41.0 42.0 42.0 43.0 43.0 44.0 44.0
 45.0 45.0 46.0 46.0 47.0 47.0 48.0 48.0
 49.0 49.0 410.0 410.0 411.0 411.0 412.0 412.0
 413.0 413.0 414.0 414.0 415.0 415.0 416.0 416.0
 417.0 417.0 418.0 418.0 419.0 419.0
 51.0 51.0 52.0 52.0 53.0 53.0 54.0 54.0
 55.0 55.0 56.0 56.0 57.0 57.0 58.0 58.0
 59.0 59.0 510.0 510.0 511.0 511.0 512.0 512.0
 513.0 513.0 514.0 514.0 515.0 515.0 516.0 516.0
 517.0 517.0 518.0 518.0 519.0 519.0
 61.0 61.0 62.0 62.0 63.0 63.0 64.0 64.0
 65.0 65.0 66.0 66.0 67.0 67.0 68.0 68.0
 69.0 69.0 610.0 610.0 611.0 611.0 612.0 612.0
 613.0 613.0 614.0 614.0 615.0 615.0 616.0 616.0
 617.0 617.0 618.0 618.0 619.0 619.0
 71.0 71.0 72.0 72.0 73.0 73.0 74.0 74.0
 75.0 75.0 76.0 76.0 77.0 77.0 78.0 78.0
 79.0 79.0 710.0 710.0 711.0 711.0 712.0 712.0
 713.0 713.0 714.0 714.0 715.0 715.0 716.0 716.0
 717.0 717.0 718.0 718.0 719.0 719.0
 81.0 81.0 82.0 82.0 83.0 83.0 84.0 84.0
 85.0 85.0 86.0 86.0 87.0 87.0 88.0 88.0
 89.0 89.0 810.0 810.0 811.0 811.0 812.0 812.0
 813.0 813.0 814.0 814.0 815.0 815.0 816.0 816.0
 817.0 817.0 818.0 818.0 819.0 819.0
 91.0 91.0 92.0 92.0 93.0 93.0 94.0 94.0
 95.0 95.0 96.0 96.0 97.0 97.0 98.0 98.0
 99.0 99.0 910.0 910.0 911.0 911.0 912.0 912.0
 913.0 913.0 914.0 914.0 915.0 915.0 916.0 916.0
 917.0 917.0 918.0 918.0 919.0 919.0
 101.0 101.0 102.0 102.0 103.0 103.0 104.0 104.0
 105.0 105.0 106.0 106.0 107.0 107.0 108.0 108.0
 109.0 109.0 1010.0 1010.0 1011.0 1011.0 1012.0 1012.0
 1013.0 1013.0 1014.0 1014.0 1015.0 1015.0 1016.0 1016.0
 1017.0 1017.0 1018.0 1018.0 1019.0 1019.0
 111.0 111.0 112.0 112.0 113.0 113.0 114.0 114.0
 115.0 115.0 116.0 116.0 117.0 117.0 118.0 118.0
 119.0 119.0 1110.0 1110.0 1111.0 1111.0 1112.0 1112.0
 1113.0 1113.0 1114.0 1114.0 1115.0 1115.0 1116.0 1116.0
 1117.0 1117.0 1118.0 1118.0 1119.0 1119.0
 121.0 121.0 122.0 122.0 123.0 123.0 124.0 124.0
 125.0 125.0 126.0 126.0 127.0 127.0 128.0 128.0
 129.0 129.0 1210.0 1210.0 1211.0 1211.0 1212.0 1212.0
 1213.0 1213.0 1214.0 1214.0 1215.0 1215.0 1216.0 1216.0
 1217.0 1217.0 1218.0 1218.0 1219.0 1219.0
 131.0 131.0 132.0 132.0 133.0 133.0 134.0 134.0
 135.0 135.0 136.0 136.0 137.0 137.0 138.0 138.0
 139.0 139.0 1310.0 1310.0 1311.0 1311.0 1312.0 1312.0
 1313.0 1313.0 1314.0 1314.0 1315.0 1315.0 1316.0 1316.0
 1317.0 1317.0 1318.0 1318.0 1319.0 1319.0
 141.0 141.0 142.0 142.0 143.0 143.0 144.0 144.0
 145.0 145.0 146.0 146.0 147.0 147.0 148.0 148.0
 149.0 149.0 1410.0 1410.0 1411.0 1411.0 1412.0 1412.0
 1413.0 1413.0 1414.0 1414.0 1415.0 1415.0 1416.0 1416.0
 1417.0 1417.0 1418.0 1418.0 1419.0 1419.0
 151.0 151.0 152.0 152.0 153.0 153.0 154.0 154.0
 155.0 155.0 156.0 156.0 157.0 157.0 158.0 158.0
 159.0 159.0 1510.0 1510.0 1511.0 1511.0 1512.0 1512.0
 1513.0 1513.0 1514.0 1514.0 1515.0 1515.0 1516.0 1516.0
 1517.0 1517.0 1518.0 1518.0 1519.0 1519.0
 161.0 161.0 162.0 162.0 163.0 163.0 164.0 164.0
 165.0 165.0 166.0 166.0 167.0 167.0 168.0 168.0
 169.0 169.0 1610.0 1610.0 1611.0 1611.0 1612.0 1612.0
 1613.0 1613.0 1614.0 1614.0 1615.0 1615.0 1616.0 1616.0
 1617.0 1617.0 1618.0 1618.0 1619.0 1619.0
 171.0 171.0 172.0 172.0 173.0 173.0 174.0 174.0
 175.0 175.0 176.0 176.0 177.0 177.0 178.0 178.0
 179.0 179.0 1710.0 1710.0 1711.0 1711.0 1712.0 1712.0
 1713.0 1713.0 1714.0 1714.0 1715.0 1715.0 1716.0 1716.0
 1717.0 1717.0 1718.0 1718.0 1719.0 1719.0
 181.0 181.0 182.0 182.0 183.0 183.0 184.0 184.0
 185.0 185.0 186.0 186.0 187.0 187.0 188.0 188.0
 189.0 189.0 1810.0 1810.0 1811.0 1811.0 1812.0 1812.0
 1813.0 1813.0 1814.0 1814.0 1815.0 1815.0 1816.0 1816.0
 1817.0 1817.0 1818.0 1818.0 1819.0 1819.0
 191.0 191.0 192.0 192.0 193.0 193.0 194.0 194.0
 195.0 195.0 196.0 196.0 197.0 197.0 198.0 198.0
 199.0 199.0 1910.0 1910.0 1911.0 1911.0 1912.0 1912.0
 1913.0 1913.0 1914.0 1914.0 1915.0 1915.0 1916.0 1916.0
 1917.0 1917.0 1918.0 1918.0 1919.0 1919.0
