!Created with skrf (http://scikit-rf.org).
# GHz S RI R 50.0 
!freq
! ReS14 ImS14
! ReS18 ImS18
!
! ReS24 ImS24
! ReS28 ImS28
!
! ReS34 ImS34
! ReS38 ImS38
!
! ReS44 ImS44
! ReS48 ImS48
!
! ReS54 ImS54
! ReS58 ImS58
!
! ReS64 ImS64
! ReS68 ImS68
!
! ReS74 ImS74
! ReS78 ImS78
!
! ReS84 ImS84
! ReS88 ImS88
!
! ReS94 ImS94
! ReS98 ImS98
!
! ReS104 ImS104
! ReS108 ImS108
!
0.0 11.0 11.0 12.0 12.0 13.0 13.0 14.0 14.0
 15.0 15.0 16.0 16.0 17.0 17.0 18.0 18.0
 19.0 19.0 110.0 110.0
 21.0 21.0 22.0 22.0 23.0 23.0 24.0 24.0
 25.0 25.0 26.0 26.0 27.0 27.0 28.0 28.0
 29.0 29.0 210.0 210.0
 31.0 31.0 32.0 32.0 33.0 33.0 34.0 34.0
 35.0 35.0 36.0 36.0 37.0 37.0 38.0 38.0
 39.0 39.0 310.0 310.0
 41.0 41.0 42.0 42.0 43.0 43.0 44.0 44.0
 45.0 45.0 46.0 46.0 47.0 47.0 48.0 48.0
 49.0 49.0 410.0 410.0
 51.0 51.0 52.0 52.0 53.0 53.0 54.0 54.0
 55.0 55.0 56.0 56.0 57.0 57.0 58.0 58.0
 59.0 59.0 510.0 510.0
 61.0 61.0 62.0 62.0 63.0 63.0 64.0 64.0
 65.0 65.0 66.0 66.0 67.0 67.0 68.0 68.0
 69.0 69.0 610.0 610.0
 71.0 71.0 72.0 72.0 73.0 73.0 74.0 74.0
 75.0 75.0 76.0 76.0 77.0 77.0 78.0 78.0
 79.0 79.0 710.0 710.0
 81.0 81.0 82.0 82.0 83.0 83.0 84.0 84.0
 85.0 85.0 86.0 86.0 87.0 87.0 88.0 88.0
 89.0 89.0 810.0 810.0
 91.0 91.0 92.0 92.0 93.0 93.0 94.0 94.0
 95.0 95.0 96.0 96.0 97.0 97.0 98.0 98.0
 99.0 99.0 910.0 910.0
 101.0 101.0 102.0 102.0 103.0 103.0 104.0 104.0
 105.0 105.0 106.0 106.0 107.0 107.0 108.0 108.0
 109.0 109.0 1010.0 1010.0
1000.0 11.0 11.0 12.0 12.0 13.0 13.0 14.0 14.0
 15.0 15.0 16.0 16.0 17.0 17.0 18.0 18.0
 19.0 19.0 110.0 110.0
 21.0 21.0 22.0 22.0 23.0 23.0 24.0 24.0
 25.0 25.0 26.0 26.0 27.0 27.0 28.0 28.0
 29.0 29.0 210.0 210.0
 31.0 31.0 32.0 32.0 33.0 33.0 34.0 34.0
 35.0 35.0 36.0 36.0 37.0 37.0 38.0 38.0
 39.0 39.0 310.0 310.0
 41.0 41.0 42.0 42.0 43.0 43.0 44.0 44.0
 45.0 45.0 46.0 46.0 47.0 47.0 48.0 48.0
 49.0 49.0 410.0 410.0
 51.0 51.0 52.0 52.0 53.0 53.0 54.0 54.0
 55.0 55.0 56.0 56.0 57.0 57.0 58.0 58.0
 59.0 59.0 510.0 510.0
 61.0 61.0 62.0 62.0 63.0 63.0 64.0 64.0
 65.0 65.0 66.0 66.0 67.0 67.0 68.0 68.0
 69.0 69.0 610.0 610.0
 71.0 71.0 72.0 72.0 73.0 73.0 74.0 74.0
 75.0 75.0 76.0 76.0 77.0 77.0 78.0 78.0
 79.0 79.0 710.0 710.0
 81.0 81.0 82.0 82.0 83.0 83.0 84.0 84.0
 85.0 85.0 86.0 86.0 87.0 87.0 88.0 88.0
 89.0 89.0 810.0 810.0
 91.0 91.0 92.0 92.0 93.0 93.0 94.0 94.0
 95.0 95.0 96.0 96.0 97.0 97.0 98.0 98.0
 99.0 99.0 910.0 910.0
 101.0 101.0 102.0 102.0 103.0 103.0 104.0 104.0
 105.0 105.0 106.0 106.0 107.0 107.0 108.0 108.0
 109.0 109.0 1010.0 1010.0
