!Created with skrf (http://scikit-rf.org).
# GHz S RI R 50.0 
!freq
! ReS14 ImS14
! ReS18 ImS18
! ReS112 ImS112
!
! ReS24 ImS24
! ReS28 ImS28
! ReS212 ImS212
!
! ReS34 ImS34
! ReS38 ImS38
! ReS312 ImS312
!
! ReS44 ImS44
! ReS48 ImS48
! ReS412 ImS412
!
! ReS54 ImS54
! ReS58 ImS58
! ReS512 ImS512
!
! ReS64 ImS64
! ReS68 ImS68
! ReS612 ImS612
!
! ReS74 ImS74
! ReS78 ImS78
! ReS712 ImS712
!
! ReS84 ImS84
! ReS88 ImS88
! ReS812 ImS812
!
! ReS94 ImS94
! ReS98 ImS98
! ReS912 ImS912
!
! ReS104 ImS104
! ReS108 ImS108
! ReS1012 ImS1012
!
! ReS114 ImS114
! ReS118 ImS118
! ReS1112 ImS1112
!
! ReS124 ImS124
! ReS128 ImS128
! ReS1212 ImS1212
!
! ReS134 ImS134
! ReS138 ImS138
! ReS1312 ImS1312
!
! ReS144 ImS144
! ReS148 ImS148
! ReS1412 ImS1412
!
0.0 11.0 11.0 12.0 12.0 13.0 13.0 14.0 14.0
 15.0 15.0 16.0 16.0 17.0 17.0 18.0 18.0
 19.0 19.0 110.0 110.0 111.0 111.0 112.0 112.0
 113.0 113.0 114.0 114.0
 21.0 21.0 22.0 22.0 23.0 23.0 24.0 24.0
 25.0 25.0 26.0 26.0 27.0 27.0 28.0 28.0
 29.0 29.0 210.0 210.0 211.0 211.0 212.0 212.0
 213.0 213.0 214.0 214.0
 31.0 31.0 32.0 32.0 33.0 33.0 34.0 34.0
 35.0 35.0 36.0 36.0 37.0 37.0 38.0 38.0
 39.0 39.0 310.0 310.0 311.0 311.0 312.0 312.0
 313.0 313.0 314.0 314.0
 41.0 41.0 42.0 42.0 43.0 43.0 44.0 44.0
 45.0 45.0 46.0 46.0 47.0 47.0 48.0 48.0
 49.0 49.0 410.0 410.0 411.0 411.0 412.0 412.0
 413.0 413.0 414.0 414.0
 51.0 51.0 52.0 52.0 53.0 53.0 54.0 54.0
 55.0 55.0 56.0 56.0 57.0 57.0 58.0 58.0
 59.0 59.0 510.0 510.0 511.0 511.0 512.0 512.0
 513.0 513.0 514.0 514.0
 61.0 61.0 62.0 62.0 63.0 63.0 64.0 64.0
 65.0 65.0 66.0 66.0 67.0 67.0 68.0 68.0
 69.0 69.0 610.0 610.0 611.0 611.0 612.0 612.0
 613.0 613.0 614.0 614.0
 71.0 71.0 72.0 72.0 73.0 73.0 74.0 74.0
 75.0 75.0 76.0 76.0 77.0 77.0 78.0 78.0
 79.0 79.0 710.0 710.0 711.0 711.0 712.0 712.0
 713.0 713.0 714.0 714.0
 81.0 81.0 82.0 82.0 83.0 83.0 84.0 84.0
 85.0 85.0 86.0 86.0 87.0 87.0 88.0 88.0
 89.0 89.0 810.0 810.0 811.0 811.0 812.0 812.0
 813.0 813.0 814.0 814.0
 91.0 91.0 92.0 92.0 93.0 93.0 94.0 94.0
 95.0 95.0 96.0 96.0 97.0 97.0 98.0 98.0
 99.0 99.0 910.0 910.0 911.0 911.0 912.0 912.0
 913.0 913.0 914.0 914.0
 101.0 101.0 102.0 102.0 103.0 103.0 104.0 104.0
 105.0 105.0 106.0 106.0 107.0 107.0 108.0 108.0
 109.0 109.0 1010.0 1010.0 1011.0 1011.0 1012.0 1012.0
 1013.0 1013.0 1014.0 1014.0
 111.0 111.0 112.0 112.0 113.0 113.0 114.0 114.0
 115.0 115.0 116.0 116.0 117.0 117.0 118.0 118.0
 119.0 119.0 1110.0 1110.0 1111.0 1111.0 1112.0 1112.0
 1113.0 1113.0 1114.0 1114.0
 121.0 121.0 122.0 122.0 123.0 123.0 124.0 124.0
 125.0 125.0 126.0 126.0 127.0 127.0 128.0 128.0
 129.0 129.0 1210.0 1210.0 1211.0 1211.0 1212.0 1212.0
 1213.0 1213.0 1214.0 1214.0
 131.0 131.0 132.0 132.0 133.0 133.0 134.0 134.0
 135.0 135.0 136.0 136.0 137.0 137.0 138.0 138.0
 139.0 139.0 1310.0 1310.0 1311.0 1311.0 1312.0 1312.0
 1313.0 1313.0 1314.0 1314.0
 141.0 141.0 142.0 142.0 143.0 143.0 144.0 144.0
 145.0 145.0 146.0 146.0 147.0 147.0 148.0 148.0
 149.0 149.0 1410.0 1410.0 1411.0 1411.0 1412.0 1412.0
 1413.0 1413.0 1414.0 1414.0
1000.0 11.0 11.0 12.0 12.0 13.0 13.0 14.0 14.0
 15.0 15.0 16.0 16.0 17.0 17.0 18.0 18.0
 19.0 19.0 110.0 110.0 111.0 111.0 112.0 112.0
 113.0 113.0 114.0 114.0
 21.0 21.0 22.0 22.0 23.0 23.0 24.0 24.0
 25.0 25.0 26.0 26.0 27.0 27.0 28.0 28.0
 29.0 29.0 210.0 210.0 211.0 211.0 212.0 212.0
 213.0 213.0 214.0 214.0
 31.0 31.0 32.0 32.0 33.0 33.0 34.0 34.0
 35.0 35.0 36.0 36.0 37.0 37.0 38.0 38.0
 39.0 39.0 310.0 310.0 311.0 311.0 312.0 312.0
 313.0 313.0 314.0 314.0
 41.0 41.0 42.0 42.0 43.0 43.0 44.0 44.0
 45.0 45.0 46.0 46.0 47.0 47.0 48.0 48.0
 49.0 49.0 410.0 410.0 411.0 411.0 412.0 412.0
 413.0 413.0 414.0 414.0
 51.0 51.0 52.0 52.0 53.0 53.0 54.0 54.0
 55.0 55.0 56.0 56.0 57.0 57.0 58.0 58.0
 59.0 59.0 510.0 510.0 511.0 511.0 512.0 512.0
 513.0 513.0 514.0 514.0
 61.0 61.0 62.0 62.0 63.0 63.0 64.0 64.0
 65.0 65.0 66.0 66.0 67.0 67.0 68.0 68.0
 69.0 69.0 610.0 610.0 611.0 611.0 612.0 612.0
 613.0 613.0 614.0 614.0
 71.0 71.0 72.0 72.0 73.0 73.0 74.0 74.0
 75.0 75.0 76.0 76.0 77.0 77.0 78.0 78.0
 79.0 79.0 710.0 710.0 711.0 711.0 712.0 712.0
 713.0 713.0 714.0 714.0
 81.0 81.0 82.0 82.0 83.0 83.0 84.0 84.0
 85.0 85.0 86.0 86.0 87.0 87.0 88.0 88.0
 89.0 89.0 810.0 810.0 811.0 811.0 812.0 812.0
 813.0 813.0 814.0 814.0
 91.0 91.0 92.0 92.0 93.0 93.0 94.0 94.0
 95.0 95.0 96.0 96.0 97.0 97.0 98.0 98.0
 99.0 99.0 910.0 910.0 911.0 911.0 912.0 912.0
 913.0 913.0 914.0 914.0
 101.0 101.0 102.0 102.0 103.0 103.0 104.0 104.0
 105.0 105.0 106.0 106.0 107.0 107.0 108.0 108.0
 109.0 109.0 1010.0 1010.0 1011.0 1011.0 1012.0 1012.0
 1013.0 1013.0 1014.0 1014.0
 111.0 111.0 112.0 112.0 113.0 113.0 114.0 114.0
 115.0 115.0 116.0 116.0 117.0 117.0 118.0 118.0
 119.0 119.0 1110.0 1110.0 1111.0 1111.0 1112.0 1112.0
 1113.0 1113.0 1114.0 1114.0
 121.0 121.0 122.0 122.0 123.0 123.0 124.0 124.0
 125.0 125.0 126.0 126.0 127.0 127.0 128.0 128.0
 129.0 129.0 1210.0 1210.0 1211.0 1211.0 1212.0 1212.0
 1213.0 1213.0 1214.0 1214.0
 131.0 131.0 132.0 132.0 133.0 133.0 134.0 134.0
 135.0 135.0 136.0 136.0 137.0 137.0 138.0 138.0
 139.0 139.0 1310.0 1310.0 1311.0 1311.0 1312.0 1312.0
 1313.0 1313.0 1314.0 1314.0
 141.0 141.0 142.0 142.0 143.0 143.0 144.0 144.0
 145.0 145.0 146.0 146.0 147.0 147.0 148.0 148.0
 149.0 149.0 1410.0 1410.0 1411.0 1411.0 1412.0 1412.0
 1413.0 1413.0 1414.0 1414.0
