#  HZ   S   DB   R     50.00 
! Rohde & Schwarz Vector Network Analyzer 
! Rohde-Schwarz,ZNA43-4Port,1332450044102076,2.92
! Created: UTC 5/14/2024, 7:15:00 PM
! (2.92) P1 SRC, P2 STD, B21 40, B31 0, B501 On, B32 0, B302 Off, 271 pts, 3th, 2 GHz, 10 ms, 25 ms, 0.5 ms, 0.1 ms, Ext Att P1 6 P2 6, LN
! freq[Hz]                db:S11                  ang:S11                 db:S21                  ang:S21                 db:S12                  ang:S12                 db:S22                  ang:S22
 4.500000000000000E8    -3.762064418913475E-2    3.890053032912508E1    -1.167296760361659E2    -7.761924559272005E1    -1.119391573352778E2     1.366332472536171E2    -3.995925608732417E-2    3.808978132918197E1
 4.502500000000000E8    -3.705776623958776E-2    3.875718719435632E1    -1.083133994347231E2     1.658698008008858E2    -1.176197314549880E2     7.148057353383928E1    -3.998942219700803E-2    3.795374699715300E1
 4.505000000000000E8    -3.712584898407888E-2    3.861988742623434E1    -1.029335315224564E2    -1.910752039108906      -1.075674516260751E2    -4.081383577224134E1    -3.996286467970129E-2    3.781658687461505E1
 4.507500000000000E8    -3.673088934682413E-2    3.847960217326386E1    -1.101083899001480E2     1.081400883521044E2    -1.066278145327504E2     2.263989131912699      -3.715601089063102E-2    3.766428846025254E1
 4.510000000000000E8    -3.404378841195888E-2    3.832912820659391E1    -1.201256858665805E2     1.209238157401228E2    -1.042314865989297E2    -9.567814007471290E1    -3.736820289660681E-2    3.752436275736915E1
 4.512500000000000E8    -3.435786584127381E-2    3.819031273300003E1    -1.140920757905635E2    -1.092275773458846E2    -1.144708556153638E2    -4.379090271986080E1    -3.724145143653076E-2    3.738480781083091E1
 4.515000000000000E8    -3.409938029116725E-2    3.804888543295943E1    -1.270594285462541E2    -1.097070456959801E2    -1.067403665604943E2    -6.977869605461515E1    -3.715292976289493E-2    3.724355842245134E1
 4.517500000000000E8    -3.419713393032719E-2    3.790859830994722E1    -1.255157641289175E2    -5.676025489193749E1    -1.070996390254998E2     1.343482321097960E2    -3.693117942987575E-2    3.710394596748421E1
 4.520000000000000E8    -3.411123263331944E-2    3.776716980095770E1    -1.168725460856210E2    -1.200058095936617E2    -1.103481921338891E2    -4.145574632863374E1    -3.714576051396975E-2    3.696533571502622E1
 4.522500000000000E8    -3.425434175141407E-2    3.762414651077346E1    -1.150313374815287E2    -1.492552793729627E2    -9.861816821209658E1    -1.337569475141619E2    -3.683497719399424E-2    3.682251192775074E1
 4.525000000000000E8    -3.424033952918998E-2    3.748299352996089E1    -1.166833262892362E2     1.413042702131031E2    -1.079599357073804E2    -8.153525439081218E1    -3.696997443397291E-2    3.668060774232539E1
 4.527500000000000E8    -3.439227136320972E-2    3.733718169687089E1    -1.082140400209777E2    -4.750511064286870      -1.075324473672332E2    -4.082092837041746E1    -3.695636136316481E-2    3.653908779251608E1
 4.530000000000000E8    -3.423024391756536E-2    3.719560301337228E1    -1.054183145995302E2     1.367978743498611E2    -1.132148146226893E2     1.609143662472546E2    -3.687982716767706E-2    3.639607587179325E1
 4.532500000000000E8    -3.431858422902140E-2    3.705076916615966E1    -1.114591889147290E2    -4.784399563387884E1    -1.094915659562914E2    -8.928790807305155E1    -3.662586596065198E-2    3.625179979862962E1
 4.535000000000000E8    -3.420049477998697E-2    3.690581933204782E1    -1.065891798853905E2     1.285767366624615E2    -1.074626460123916E2    -1.050462405988034E2    -3.670410046362468E-2    3.610799435303829E1
 4.537500000000000E8    -3.424040123719448E-2    3.675931329387402E1    -1.037427328491564E2    -1.189469857275339E1    -1.083218206080326E2    -9.729810650496897E1    -3.652594096125091E-2    3.596344520086424E1
 4.540000000000000E8    -3.434680487193707E-2    3.661363562831689E1    -1.055089669671513E2     1.381017492324125E2    -1.136777525476800E2     1.040085719319972E2    -3.639702578771659E-2    3.581930824941849E1
 4.542500000000000E8    -3.413479836145954E-2    3.646732302559865E1    -1.065540613690752E2    -1.571417569682315E2    -1.079718822646303E2     1.348289301830766E2    -3.648483203042700E-2    3.567555244335902E1
 4.545000000000000E8    -3.435403174135829E-2    3.632081421620402E1    -1.086874763413703E2    -9.299540775947388E1    -1.204330166834489E2    -1.790238139433879E2    -3.620223135111024E-2    3.552733851421284E1
 4.547500000000000E8    -3.419443579684397E-2    3.617425418742297E1    -1.068118697061853E2     1.393101567786507E2    -1.085623653891016E2    -5.329234489008161E1    -3.619934201325744E-2    3.538072045700701E1
 4.550000000000000E8    -3.419720488442175E-2    3.602331493339715E1    -1.323359674509116E2     3.267926053046143E1    -1.100594817088170E2    -1.479422542570008E2    -3.606816991525037E-2    3.523327869109954E1
 4.552500000000000E8    -3.419160424797895E-2    3.587666271853954E1    -1.100458380450153E2     9.399387042748778E1    -1.057438758939816E2    -1.417936648477398E2    -3.597732057100633E-2    3.508557547370047E1
 4.555000000000000E8    -3.408821039950101E-2    3.572790275681202E1    -1.158606440072498E2     1.301599504579440E2    -1.199213511954589E2    -1.144716370070292E1    -3.606615047638055E-2    3.493700386996651E1
 4.557500000000000E8    -3.400156718651604E-2    3.557789532061051E1    -1.081784034973930E2     4.032457086070974      -1.083025397403702E2    -9.657511068809958E1    -3.566003984585835E-2    3.478838352467119E1
 4.560000000000000E8    -3.405607341581917E-2    3.542500652698435E1    -1.089882683163423E2     4.957695076513120      -1.065703783242714E2    -1.416569229483445E2    -3.567912669346146E-2    3.463769453658084E1
 4.562500000000000E8    -3.463945558778780E-2    3.527584074489234E1    -1.143922628084949E2    -1.177432078252254E2    -1.244614829142939E2     9.261192089573524E1    -3.566427383863960E-2    3.448832427627747E1
 4.565000000000000E8    -3.425141066695318E-2    3.512455049444348E1    -1.063854701329365E2    -6.645926427826360      -1.120611436622714E2     1.643942622552407      -3.565389819633315E-2    3.433700381381642E1
 4.567500000000000E8    -3.427133822191574E-2    3.497445839840518E1    -1.064254100996105E2     8.297644386596697E1    -1.091423457232249E2     9.010393758475830E1    -3.579043221043040E-2    3.418618739085213E1
 4.570000000000000E8    -3.396746941316218E-2    3.482002436708652E1    -1.223318475645952E2    -1.583911049906525E2    -1.177549770082324E2     1.488048083177078E2    -3.541742799720583E-2    3.403361539239213E1
 4.572500000000000E8    -3.416601515657686E-2    3.466517331403675E1    -1.082415689020890E2    -4.787474197747483      -1.125446570784212E2     9.056761327161309      -3.557916591858050E-2    3.388031546869912E1
 4.575000000000000E8    -3.407993542666322E-2    3.451017955732364E1    -1.149247017700439E2    -6.486155801630427E1    -1.185104807316735E2    -7.144024053568828E1    -3.534590497164624E-2    3.372781526508563E1
 4.577500000000000E8    -3.390374083988913E-2    3.435721530709551E1    -1.080365366016569E2    -8.530362111763291E1    -1.040975523071065E2    -9.365970550623702E1    -3.537641206965413E-2    3.357219793218128E1
 4.580000000000000E8    -3.404726426105083E-2    3.420190279664938E1    -1.082601800184766E2    -9.013837526312980E1    -1.119830907288860E2     1.585350929042397E2    -3.543424000520286E-2    3.341830675472099E1
 4.582500000000000E8    -3.416616885494919E-2    3.404698728432093E1    -1.038121342197523E2    -1.326498358337728E2    -1.131347626934154E2    -6.754287086600598E1    -3.512431043292083E-2    3.326240839085663E1
 4.585000000000000E8    -3.420052698393936E-2    3.388804433167711E1    -1.168801770108240E2     6.673319026719990E1    -1.049569328781508E2     5.999621206016879E1    -3.511356290836123E-2    3.310620185785568E1
 4.587500000000000E8    -3.407559217318257E-2    3.373210082173338E1    -1.104086557301109E2    -1.051527551348983E2    -1.136545505527648E2     1.149973733025255E2    -3.531379387921414E-2    3.295142266740164E1
 4.590000000000000E8    -3.392589856225223E-2    3.357326197881670E1    -1.137721136319248E2    -9.852230778039068E1    -1.233285664937665E2     2.780721562375007E1    -3.501775157466439E-2    3.279438873887842E1
 4.592500000000000E8    -3.403214617804802E-2    3.341565293556375E1    -1.098572956847945E2     3.649373374423931E1    -1.105487056199252E2     1.550523722639481E2    -3.476260654480650E-2    3.263585721088157E1
 4.595000000000000E8    -3.361364105540297E-2    3.325675053204591E1    -1.133497004091862E2    -1.385233846611643E2    -1.062079043178980E2    -3.638975025278830E1    -3.496303839565280E-2    3.247629876420685E1
 4.597500000000000E8    -3.381691118536387E-2    3.309617022577766E1    -1.175503083852542E2     7.128752843805970E1    -1.151579411462032E2     9.764882461870477E1    -3.463882386338193E-2    3.231767820635087E1
 4.600000000000000E8    -3.379104659435193E-2    3.293593335463463E1    -1.135693584289797E2    -9.794484243646656E1    -1.065485330216103E2    -1.063192404386401E2    -3.465802652732348E-2    3.215929019110262E1
 4.602500000000000E8    -3.383005102933451E-2    3.277299622295887E1    -1.091372241211774E2    -1.209682880998143E1    -1.053036942798282E2    -1.354787758289513E2    -3.463129374950977E-2    3.199672280763921E1
 4.605000000000000E8    -3.360210945505108E-2    3.261251041847104E1    -1.134673819287643E2    -2.352525498703313E1    -1.169324879959413E2    -1.556547843121795      -3.461861966965901E-2    3.183374053529486E1
 4.607500000000000E8    -3.360366112088347E-2    3.244941970562346E1    -1.093439401035488E2     7.334463409120806E1    -1.108472477258899E2    -2.969525014126501E1    -3.456636272822335E-2    3.167254389528148E1
 4.610000000000000E8    -3.329439627767667E-2    3.228656235535380E1    -1.176064812301016E2     6.566016244273479E1    -1.106540675524451E2    -1.036362481537946E2    -3.433072457756843E-2    3.150775506212109E1
 4.612500000000000E8    -3.338078793144149E-2    3.212136668203438E1    -1.067243231578623E2     8.298963687256689E1    -1.184223962661188E2     6.163351250724564E1    -3.411625334818939E-2    3.134428689610570E1
 4.615000000000000E8    -3.325453637169142E-2    3.195559050708323E1    -1.057721396821228E2     1.258806359349140E1    -1.052081681969167E2    -6.184463317479559      -3.410256713315785E-2    3.117796157368576E1
 4.617500000000000E8    -3.322976503733258E-2    3.179085422809869E1    -1.105688063504819E2    -2.051542282819173E1    -1.145674260297234E2     7.096885163062387E1    -3.399959946586978E-2    3.101262829833657E1
 4.620000000000000E8    -3.323764277363585E-2    3.162558082286824E1    -1.101631982975016E2     5.467520702673148E1    -1.127040348444383E2    -1.302939484575859E2    -3.378312031803060E-2    3.084649526085747E1
 4.622500000000000E8    -3.292898142094305E-2    3.145691252826321E1    -1.078745566156182E2    -5.286630706498974E1    -1.103253519823892E2    -1.020212212645389E1    -3.406372277194662E-2    3.068000984342220E1
 4.625000000000000E8    -3.279434228030411E-2    3.128981001478577E1    -1.112417209038938E2     1.350599656204222E2    -1.035759177956888E2    -2.033821408827190E1    -3.388776955174980E-2    3.051102818932353E1
 4.627500000000000E8    -3.300081471698031E-2    3.111958385854842E1    -1.050215568025559E2    -1.438942879575378E2    -1.132317690443025E2     1.636685796670964E2    -3.364873812883809E-2    3.034433520754898E1
 4.630000000000000E8    -3.286788379476074E-2    3.095074858937780E1    -1.072126423361346E2     2.405681790463603E1    -1.128995448382295E2     1.443152343755303E2    -3.366331789436675E-2    3.017296686862071E1
 4.632500000000000E8    -3.243554338205738E-2    3.078079142611241E1    -1.114577468002445E2    -6.422933817934133E-1   -1.149245028926379E2     1.239317706748209E2    -3.363819364171163E-2    3.000336624404180E1
 4.635000000000000E8    -3.242776277328723E-2    3.060937867589831E1    -1.063877146611669E2    -7.044432919386655E1    -1.115702662462529E2    -1.226199629319432E2    -3.345034361739240E-2    2.983180951118720E1
 4.637500000000000E8    -3.228077891133061E-2    3.043750577631065E1    -1.044574697010097E2     9.904854801563467E1    -1.134142520176577E2     1.537931348565614E2    -3.338986952854836E-2    2.965953277434604E1
 4.640000000000000E8    -3.212373200255942E-2    3.026413374578271E1    -1.134768155990308E2    -1.692781449968800E2    -1.144110431889530E2    -7.107273513790716E1    -3.318541016075882E-2    2.948702201289496E1
 4.642500000000000E8    -3.213376633991346E-2    3.009184166197088E1    -1.042218254601866E2    -2.656157408300312E1    -1.035843193462940E2    -7.462716148467611E1    -3.286932996880773E-2    2.931440663478898E1
 4.645000000000000E8    -3.185818201578894E-2    2.991754788733312E1    -1.096692541783221E2    -6.926215574509015E1    -1.086550535359630E2    -8.961189776292349E1    -3.274718009312839E-2    2.914005955426819E1
 4.647500000000000E8    -3.197023221178343E-2    2.974205951470670E1    -1.124310031164237E2    -8.986774888708136E1    -1.212535629453996E2    -1.956311755045170E1    -3.289198776585805E-2    2.896443739401440E1
 4.650000000000000E8    -3.172360570649130E-2    2.956751877269211E1    -1.235657499303277E2     1.243520206667311E2    -1.071753623106912E2    -6.722283323792581E1    -3.245126364417202E-2    2.878973731003585E1
 4.652500000000000E8    -3.141568852704164E-2    2.939151338144376E1    -1.045514128047678E2    -7.772711432988244E1    -1.038724648508321E2    -7.138121459520191E1    -3.245358890953376E-2    2.861266935640600E1
 4.655000000000000E8    -3.136494368676041E-2    2.921264403282062E1    -1.185320083358140E2    -5.284409406538567E1    -1.072711175125668E2     1.325510310313217E2    -3.277223724198685E-2    2.843459940808917E1
 4.657500000000000E8    -3.117730337109510E-2    2.903528909614330E1    -1.063263088366305E2    -3.043259266918961E1    -1.049717296645965E2    -9.859348160415870      -3.250022343820434E-2    2.825479212589013E1
 4.660000000000000E8    -3.124758697054270E-2    2.885418535367770E1    -1.040111988289492E2    -2.455957201784241E1    -1.065281408847476E2    -3.343545126924072E1    -3.228345270187564E-2    2.807593038117624E1
 4.662500000000000E8    -3.091950925699441E-2    2.867647866381008E1    -1.168853260613750E2     5.767210418012942E1    -1.020555665992020E2    -3.526153138614022E1    -3.237513459326095E-2    2.789483492112824E1
 4.665000000000000E8    -3.057660288459958E-2    2.849336220830219E1    -1.121098266632419E2    -1.258035226855603E2    -1.184588676434153E2    -2.047910089399883E1    -3.231968215461568E-2    2.771519167269977E1
 4.667500000000000E8    -3.125897045187553E-2    2.831076651668772E1    -1.304828967964527E2     1.418161972268921E2    -1.086623958491319E2     1.666149280078488E2    -3.219201885461729E-2    2.753262490362576E1
 4.670000000000000E8    -3.060344676262058E-2    2.813104505356638E1    -1.118527810291742E2    -1.082453426813366E2    -1.078932109247077E2     7.399856989672597E1    -3.204973014378418E-2    2.734950750360269E1
 4.672500000000000E8    -3.045919717491544E-2    2.794445107813290E1    -1.094426033379801E2    -1.059193719174254E2    -1.076788902688760E2    -9.563835193637905E1    -3.179174625702141E-2    2.716502741210454E1
 4.675000000000000E8    -3.049419244556106E-2    2.776067249169361E1    -1.071456369095600E2    -1.231884501164498E2    -1.176939201969444E2     2.726718043927466E1    -3.172474455634507E-2    2.698030706245401E1
 4.677500000000000E8    -3.029476992274931E-2    2.757369779076453E1    -1.041753235855988E2    -1.591025399645307E2    -1.051388109422461E2    -9.051761780000157E1    -3.167890080370376E-2    2.679446435416347E1
 4.680000000000000E8    -3.016350495656756E-2    2.738817800442690E1    -1.065531540722728E2    -3.044126591632473E1    -1.014872658219430E2    -1.141242289775210E1    -3.170351162934534E-2    2.660737484219084E1
 4.682500000000000E8    -2.996797296264841E-2    2.720172606151977E1    -1.084641726513267E2    -1.504973323434602E2    -1.149887368214994E2     1.617744778742996E2    -3.145478233620923E-2    2.641958454892598E1
 4.685000000000000E8    -2.966297684425344E-2    2.701248608789815E1    -1.168866863793955E2    -8.219057842770269E1    -1.120520757262219E2     1.173578228997788E2    -3.132167728166145E-2    2.622871558116419E1
 4.687500000000000E8    -2.932146933257583E-2    2.682417239946878E1    -1.053564846739924E2    -6.287771538244564E1    -1.016449821102957E2    -3.741245438447982E1    -3.130692594484202E-2    2.603956342428685E1
 4.690000000000000E8    -2.921260944273477E-2    2.663239865936564E1    -1.081124186891900E2    -7.401094830766255E1    -1.049495949321240E2    -3.261434781552430E1    -3.119220239312483E-2    2.584920823896045E1
 4.692500000000000E8    -2.915194056901351E-2    2.644233848586043E1    -1.096010542422338E2    -4.566725850974397E1    -1.025494518493002E2    -9.119181887878408E1    -3.115413581406746E-2    2.565802588689951E1
 4.695000000000000E8    -2.910843644575412E-2    2.624940416926822E1    -1.102244545072238E2    -7.237336057005331E1    -9.996321466621137E1    -6.065649942225451E1    -3.142574367564680E-2    2.546461550093578E1
 4.697500000000000E8    -2.886948658630852E-2    2.605656529595093E1    -1.088181077684672E2     1.035752238783836E1    -1.135597055122710E2     6.214697961939490E1    -3.110006470049451E-2    2.526983225715791E1
 4.700000000000000E8    -2.891540929566670E-2    2.586243056610226E1    -1.055037212536985E2     5.074168505204570E1    -9.970571235943535E1    -6.828582378961137E1    -3.092423066933667E-2    2.507686374927134E1
 4.702500000000000E8    -2.858426547388607E-2    2.566498459605648E1    -1.006140797666945E2    -9.353906319083755E1    -1.021317935006523E2    -1.174522446048543E2    -3.106589513720712E-2    2.487889443050979E1
 4.705000000000000E8    -2.810561768296935E-2    2.546837933032370E1    -1.049061386709258E2    -1.531791374501595E2    -1.020638040499708E2    -2.680771149583348E1    -3.098190370595761E-2    2.468309746888788E1
 4.707500000000000E8    -2.828803464054945E-2    2.527211154232081E1    -1.109776090462950E2    -4.606236947402120E1    -1.005573422696986E2    -3.452926516427742E1    -3.086536676730483E-2    2.448489065508296E1
 4.710000000000000E8    -2.806590599621882E-2    2.507354760936357E1    -1.120108971307813E2    -1.298965643051911E2    -1.092337028792220E2    -1.452435798775174E2    -3.051076801475714E-2    2.428554919109678E1
 4.712500000000000E8    -2.798488532010932E-2    2.487381757603974E1    -1.044934273318704E2    -6.875715139604456E1    -1.069052399890146E2    -5.868601598157764E1    -3.043378385011834E-2    2.408585964551007E1
 4.715000000000000E8    -2.762751366837342E-2    2.467366674935012E1    -1.307855987871045E2    -6.123889197336465E1    -1.060520011188347E2    -1.576170579771114E2    -3.018898603315547E-2    2.388461174511465E1
 4.717500000000000E8    -2.743871014227736E-2    2.447166491149829E1    -1.127374233832826E2    -1.581417851719789E2    -9.924447345737109E1    -1.636135784421646E1    -3.020301467607570E-2    2.368131349461730E1
 4.720000000000000E8    -2.724951103918634E-2    2.426931689772593E1    -1.078310072359432E2    -3.223581600755089E1    -1.059916190203001E2     2.739603838704140E1    -2.992742008416120E-2    2.347751159199765E1
 4.722500000000000E8    -2.701391980367296E-2    2.406567997646108E1    -1.104365159585189E2     1.756974489364655E1    -1.056670910869794E2    -1.225057929340251E2    -3.000460719966129E-2    2.327245893774735E1
 4.725000000000000E8    -2.691910083781335E-2    2.385916794586256E1    -1.189603582731438E2     5.438933674344042E1    -1.057581340299817E2    -2.493593889515638E1    -3.001680001015596E-2    2.306550876239872E1
